(1659690138.295025) can0 1E5#00FE7C0000000000
(1659690138.295058) can0 12F#8C508ADDF4053006
(1659690138.295065) can0 1A1#00000000000000
(1659690138.295071) can0 0F1#000000000000
(1659690138.305001) can0 1E5#00FE7C0000000000
(1659690138.305970) can0 1A1#00000000000000
(1659690138.306988) can0 0F1#000000000000
(1659690138.310007) can0 1A1#DFC7000091
(1659690138.316006) can0 1E5#00FE7C0000000000
(1659690138.316035) can0 1A1#00000000000000
(1659690138.316940) can0 0F1#000000000000
(1659690138.322853) can0 510#00000000FFFF0001
(1659690138.325844) can0 1E5#00FE7C0000000000
(1659690138.326859) can0 1A1#00000000000000
(1659690138.327847) can0 0F1#000000000000
(1659690138.336854) can0 130#55F1FCFFFF
(1659690138.336871) can0 1E5#00FE7D0000000000
(1659690138.336874) can0 1A1#00000000000000
(1659690138.336876) can0 0F1#000000000000
(1659690138.346841) can0 1E5#00FE7D0000000000
(1659690138.347846) can0 1A1#00000000000000
(1659690138.348825) can0 0F1#000000000000
(1659690138.350838) can0 12F#8C508ADDF4053006
(1659690138.357860) can0 1E5#00FE7D0000000000
(1659690138.357867) can0 1A1#00000000000000
(1659690138.358804) can0 0F1#000000000000
(1659690138.364802) can0 1A1#DFC7000091
(1659690138.367839) can0 1E5#00FE7D0000000000
(1659690138.367845) can0 1A1#00000000000000
(1659690138.368799) can0 0F1#000000000000
(1659690138.378817) can0 510#00000000FFFF0001
(1659690138.378823) can0 1E5#00FE7D0000000000
(1659690138.378825) can0 1A1#00000000000000
(1659690138.378827) can0 0F1#000000000000
(1659690138.389328) can0 1E5#00FE7D0000000000
(1659690138.389337) can0 1A1#00000000000000
(1659690138.390125) can0 0F1#000000000000
(1659690138.392781) can0 130#55F1FCFFFF
(1659690138.400051) can0 1E5#00FE7D0000000000
(1659690138.400064) can0 1A1#00000000000000
(1659690138.400851) can0 0F1#000000000000
(1659690138.406258) can0 12F#8C508ADDF4053006
(1659690138.409824) can0 1E5#00FE7D0000000000
(1659690138.409833) can0 1A1#00000000000000
(1659690138.410907) can0 0F1#000000000000
(1659690138.419990) can0 1A1#DFC7000091
(1659690138.421320) can0 1E5#00FE7D0000000000
(1659690138.421339) can0 1A1#00000000000000
(1659690138.421341) can0 0F1#000000000000
(1659690138.431274) can0 1E5#00FE7D0000000000
(1659690138.431286) can0 1A1#00000000000000
(1659690138.431857) can0 0F1#000000000000
(1659690138.434200) can0 510#00000000FFFF0001
(1659690138.442161) can0 1E5#00FE7D0000000000
(1659690138.442180) can0 1A1#00000000000000
(1659690138.443131) can0 0F1#000000000000
(1659690138.447886) can0 130#55F1FCFFFF
(1659690138.451912) can0 1E5#00FE7D0000000000
(1659690138.451931) can0 1A1#00000000000000
(1659690138.453030) can0 0F1#000000000000
(1659690138.462122) can0 12F#8C508ADDF4053006
(1659690138.462159) can0 1E5#00FE7D0000000000
(1659690138.462910) can0 1A1#00000000000000
(1659690138.462931) can0 0F1#000000000000
(1659690138.473159) can0 1E5#00FE7D0000000000
(1659690138.473199) can0 1A1#00000000000000
(1659690138.474254) can0 0F1#000000000000
(1659690138.474293) can0 1A1#DFC7000091
(1659690138.483211) can0 1E5#00FE7D0000000000
(1659690138.483859) can0 1A1#00000000000000
(1659690138.484876) can0 0F1#000000000000
(1659690138.488814) can0 510#00000000FFFF0001
(1659690138.494066) can0 1E5#00FE7D0000000000
(1659690138.494105) can0 1A1#00000000000000
(1659690138.494804) can0 0F1#000000000000
(1659690138.502899) can0 130#55F1FCFFFF
(1659690138.504133) can0 1E5#00FE7D0000000000
(1659690138.504880) can0 1A1#00000000000000
(1659690138.505819) can0 0F1#000000000000
(1659690138.515069) can0 1E5#00FE7D0000000000
(1659690138.515113) can0 1A1#00000000000000
(1659690138.516103) can0 0F1#000000000000
(1659690138.516136) can0 12F#8C508ADDF4053006
(1659690138.526183) can0 1E5#00FE7D0000000000
(1659690138.526232) can0 1A1#00000000000000
(1659690138.526832) can0 0F1#000000000000
(1659690138.531180) can0 1A1#DFC7000091
(1659690138.535896) can0 1E5#00FE7D0000000000
(1659690138.535971) can0 1A1#00000000000000
(1659690138.537187) can0 0F1#000000000000
(1659690138.545067) can0 510#00000000FFFF0001
(1659690138.546174) can0 1E5#00FE7D0000000000
(1659690138.547061) can0 1A1#00000000000000
(1659690138.548187) can0 0F1#000000000000
(1659690138.556862) can0 1E5#00FE7D0000000000
(1659690138.556904) can0 1A1#00000000000000
(1659690138.556911) can0 0F1#000000000000
(1659690138.556917) can0 130#55F1FCFFFF
(1659690138.566824) can0 1E5#00FE7C0000000000
(1659690138.567790) can0 1A1#00000000000000
(1659690138.568967) can0 0F1#000000000000
(1659690138.571702) can0 12F#8C508ADDF4053006
(1659690138.578023) can0 1E5#00FE7C0000000000
(1659690138.578067) can0 1A1#00000000000000
(1659690138.579098) can0 0F1#000000000000
(1659690138.586100) can0 1A1#DFC7000091
(1659690138.587832) can0 1E5#00FE7C0000000000
(1659690138.587875) can0 1A1#00000000000000
(1659690138.589949) can0 0F1#000000000000
(1659690138.598937) can0 1E5#00FE7C0000000000
(1659690138.598990) can0 1A1#00000000000000
(1659690138.598997) can0 0F1#000000000000
(1659690138.599003) can0 510#00000000FFFF0001
(1659690138.609122) can0 1E5#00FE7C0000000000
(1659690138.609165) can0 1A1#00000000000000
(1659690138.609973) can0 0F1#000000000000
(1659690138.613954) can0 130#55F1FCFFFF
(1659690138.619993) can0 1E5#00FE7C0000000000
(1659690138.620040) can0 1A1#00000000000000
(1659690138.620873) can0 0F1#000000000000
(1659690138.627963) can0 12F#8C508ADDF4053006
(1659690138.630030) can0 1E5#00FE7C0000000000
(1659690138.630075) can0 1A1#00000000000000
(1659690138.631047) can0 0F1#000000000000
(1659690138.639735) can0 1E5#00FE7C0000000000
(1659690138.640924) can0 1A1#DFC7000091
(1659690138.640963) can0 1A1#00000000000000
(1659690138.640970) can0 0F1#000000000000
(1659690138.650743) can0 1E5#00FE7C0000000000
(1659690138.650781) can0 1A1#00000000000000
(1659690138.651672) can0 0F1#000000000000
(1659690138.654895) can0 510#00000000FFFF0001
(1659690138.660902) can0 1E5#00FE7C0000000000
(1659690138.661685) can0 1A1#00000000000000
(1659690138.662872) can0 0F1#000000000000
(1659690138.668861) can0 130#55F1FCFFFF
(1659690138.671740) can0 1E5#00FE7C0000000000
(1659690138.671779) can0 1A1#00000000000000
(1659690138.672939) can0 0F1#000000000000
(1659690138.682073) can0 12F#8C508ADDF4053006
(1659690138.682115) can0 1E5#00FE7C0000000000
(1659690138.682656) can0 1A1#00000000000000
(1659690138.682691) can0 0F1#000000000000
(1659690138.692846) can0 1E5#00FE7C0000000000
(1659690138.692897) can0 1A1#00000000000000
(1659690138.693862) can0 0F1#000000000000
(1659690138.697000) can0 1A1#DFC7000091
(1659690138.710023) can0 510#00000000FFFF0001
(1659690138.710065) can0 1E5#00FE7C0000000000
(1659690138.710074) can0 1A1#00000000000000
(1659690138.710080) can0 0F1#000000000000
(1659690138.719886) can0 1E5#00FE7C0000000000
(1659690138.720711) can0 1A1#00000000000000
(1659690138.721676) can0 0F1#000000000000
(1659690138.723870) can0 130#55F1FCFFFF
(1659690138.730924) can0 1E5#00FE7C0000000000
(1659690138.730963) can0 1A1#00000000000000
(1659690138.731628) can0 0F1#000000000000
(1659690138.737806) can0 12F#8C508ADDF4053006
(1659690138.741701) can0 1E5#00FE7C0000000000
(1659690138.741749) can0 1A1#00000000000000
(1659690138.742588) can0 0F1#000000000000
(1659690138.751731) can0 1A1#DFC7000091
(1659690138.751780) can0 1E5#00FE7C0000000000
(1659690138.751788) can0 1A1#00000000000000
(1659690138.751794) can0 0F1#000000000000
(1659690138.762985) can0 1E5#00FE7C0000000000
(1659690138.763035) can0 1A1#00000000000000
(1659690138.763694) can0 0F1#000000000000
(1659690138.765970) can0 510#00000000FFFF0001
(1659690138.772614) can0 1E5#00FE7C0000000000
(1659690138.772655) can0 1A1#00000000000000
(1659690138.773817) can0 0F1#000000000000
(1659690138.779972) can0 130#55F1FCFFFF
(1659690138.783975) can0 1E5#00FE7C0000000000
(1659690138.784031) can0 1A1#00000000000000
(1659690138.784555) can0 0F1#000000000000
(1659690138.792709) can0 12F#8C508ADDF4053006
(1659690138.793702) can0 1E5#00FE7C0000000000
(1659690138.793735) can0 1A1#00000000000000
(1659690138.794795) can0 0F1#000000000000
(1659690138.804739) can0 1E5#00FE7C0000000000
(1659690138.804784) can0 1A1#00000000000000
(1659690138.805596) can0 0F1#000000000000
(1659690138.805634) can0 1A1#DFC7000091
(1659690138.814595) can0 1E5#00FE7C0000000000
(1659690138.815706) can0 1A1#00000000000000
(1659690138.816929) can0 0F1#000000000000
(1659690138.820800) can0 510#00000000FFFF0001
(1659690138.825851) can0 1E5#00FE7C0000000000
(1659690138.825895) can0 1A1#00000000000000
(1659690138.826596) can0 0F1#000000000000
(1659690138.834746) can0 130#55F1FCFFFF
(1659690138.836828) can0 1E5#00FE7C0000000000
(1659690138.836881) can0 1A1#00000000000000
(1659690138.837897) can0 0F1#000000000000
(1659690138.846795) can0 1E5#00FE7C0000000000
(1659690138.846839) can0 1A1#00000000000000
(1659690138.847803) can0 0F1#000000000000
(1659690138.847837) can0 12F#8C508ADDF4053006
(1659690138.857842) can0 1E5#00FE7C0000000000
(1659690138.857892) can0 1A1#00000000000000
(1659690138.858592) can0 0F1#000000000000
(1659690138.861900) can0 1A1#DFC7000091
(1659690138.867818) can0 1E5#00FE7C0000000000
(1659690138.867860) can0 1A1#00000000000000
(1659690138.868846) can0 0F1#000000000000
(1659690138.875973) can0 510#00000000FFFF0001
(1659690138.878840) can0 1E5#00FE7C0000000000
(1659690138.878893) can0 1A1#00000000000000
(1659690138.879773) can0 0F1#000000000000
(1659690138.888612) can0 1E5#00FE7C0000000000
(1659690138.888655) can0 1A1#00000000000000
(1659690138.888663) can0 130#55F1FCFFFF
(1659690138.888669) can0 0F1#000000000000
(1659690138.900016) can0 1E5#00FE7C0000000000
(1659690138.900075) can0 1A1#00000000000000
(1659690138.900525) can0 0F1#000000000000
(1659690138.903958) can0 12F#8C508ADDF4053006
(1659690138.909542) can0 1E5#00FE7C0000000000
(1659690138.909579) can0 1A1#00000000000000
(1659690138.910685) can0 0F1#000000000000
(1659690138.917446) can0 1A1#DFC7000091
(1659690138.920686) can0 1E5#00FE7C0000000000
(1659690138.920729) can0 1A1#00000000000000
(1659690138.921510) can0 0F1#000000000000
(1659690138.930713) can0 510#00000000FFFF0001
(1659690138.930756) can0 1E5#00FE7C0000000000
(1659690138.930763) can0 1A1#00000000000000
(1659690138.930769) can0 0F1#000000000000
(1659690138.941682) can0 1E5#00FE7C0000000000
(1659690138.941735) can0 1A1#00000000000000
(1659690138.942670) can0 0F1#000000000000
(1659690138.944450) can0 130#55F1FCFFFF
(1659690138.951842) can0 1E5#00FE7C0000000000
(1659690138.951887) can0 1A1#00000000000000
(1659690138.952430) can0 0F1#000000000000
(1659690138.958786) can0 12F#8C508ADDF4053006
(1659690138.962745) can0 1E5#00FE7C0000000000
(1659690138.962789) can0 1A1#00000000000000
(1659690138.963454) can0 0F1#000000000000
(1659690138.972421) can0 1A1#DFC7000091
(1659690138.972471) can0 1E5#00FE7C0000000000
(1659690138.972480) can0 1A1#00000000000000
(1659690138.972486) can0 0F1#000000000000
(1659690138.982688) can0 1E5#00FE7C0000000000
(1659690138.983771) can0 1A1#00000000000000
(1659690138.984660) can0 0F1#000000000000
(1659690138.986668) can0 510#00000000FFFF0001
(1659690138.993792) can0 1E5#00FE7C0000000000
(1659690138.993834) can0 1A1#00000000000000
(1659690138.994522) can0 0F1#000000000000
(1659690139.000533) can0 130#55F1FCFFFF
(1659690139.003740) can0 1E5#00FE7C0000000000
(1659690139.004455) can0 1A1#00000000000000
(1659690139.005305) can0 0F1#000000000000
(1659690139.014741) can0 12F#8C508ADDF4053006
(1659690139.014796) can0 1E5#00FE7C0000000000
(1659690139.014804) can0 1A1#00000000000000
(1659690139.014810) can0 0F1#000000000000
(1659690139.024404) can0 1E5#00FE7C0000000000
(1659690139.025733) can0 1A1#00000000000000
(1659690139.026510) can0 0F1#000000000000
(1659690139.026555) can0 1A1#DFC7000091
(1659690139.035721) can0 1E5#00FE7C0000000000
(1659690139.035765) can0 1A1#00000000000000
(1659690139.036345) can0 0F1#000000000000
(1659690139.040362) can0 510#00000000FFFF0001
(1659690139.045712) can0 1E5#00FE7C0000000000
(1659690139.046483) can0 1A1#00000000000000
(1659690139.047682) can0 0F1#000000000000
(1659690139.055353) can0 130#55F1FCFFFF
(1659690139.056358) can0 1E5#00FE7C0000000000
(1659690139.056391) can0 1A1#00000000000000
(1659690139.057665) can0 0F1#000000000000
(1659690139.067663) can0 1E5#00FE7C0000000000
(1659690139.067713) can0 1A1#00000000000000
(1659690139.068411) can0 0F1#000000000000
(1659690139.068459) can0 12F#8C508ADDF4053006
(1659690139.077700) can0 1E5#00FE7C0000000000
(1659690139.077747) can0 1A1#00000000000000
(1659690139.078244) can0 0F1#000000000000
(1659690139.083640) can0 1A1#DFC7000091
(1659690139.088349) can0 1E5#00FE7C0000000000
(1659690139.088393) can0 1A1#00000000000000
(1659690139.089504) can0 0F1#000000000000
(1659690139.097667) can0 510#00000000FFFF0001
(1659690139.098520) can0 1E5#00FE7C0000000000
(1659690139.098564) can0 1A1#00000000000000
(1659690139.100276) can0 0F1#000000000000
(1659690139.109592) can0 1E5#00FE7C0000000000
(1659690139.109635) can0 1A1#00000000000000
(1659690139.109643) can0 0F1#000000000000
(1659690139.109649) can0 130#55F1FCFFFF
(1659690139.119290) can0 1E5#00FE7C0000000000
(1659690139.120323) can0 1A1#00000000000000
(1659690139.121483) can0 0F1#000000000000
(1659690139.124264) can0 12F#8C508ADDF4053006
(1659690139.130363) can0 1E5#00FE7C0000000000
(1659690139.130405) can0 1A1#00000000000000
(1659690139.131472) can0 0F1#000000000000
(1659690139.138268) can0 1A1#DFC7000091
(1659690139.141661) can0 1E5#00FE7C0000000000
(1659690139.141705) can0 1A1#00000000000000
(1659690139.142331) can0 0F1#000000000000
(1659690139.151515) can0 510#00000000FFFF0001
(1659690139.151559) can0 1E5#00FE7C0000000000
(1659690139.152229) can0 1A1#00000000000000
(1659690139.152263) can0 0F1#000000000000
(1659690139.162214) can0 1E5#00FE7C0000000000
(1659690139.162257) can0 1A1#00000000000000
(1659690139.163204) can0 0F1#000000000000
(1659690139.166096) can0 130#55F1FCFFFF
(1659690139.172121) can0 1E5#00FE7C0000000000
(1659690139.172130) can0 1A1#00000000000000
(1659690139.173096) can0 0F1#000000000000
(1659690139.180102) can0 12F#8C508ADDF4053006
(1659690139.183086) can0 1E5#00FE7C0000000000
(1659690139.183096) can0 1A1#00000000000000
(1659690139.184079) can0 0F1#000000000000
(1659690139.193107) can0 1A1#DFC7000091
(1659690139.193117) can0 1E5#00FE7C0000000000
(1659690139.193119) can0 1A1#00000000000000
(1659690139.193121) can0 0F1#000000000000
(1659690139.204025) can0 1E5#00FE7C0000000000
(1659690139.204034) can0 1A1#00000000000000
(1659690139.205075) can0 0F1#000000000000
(1659690139.207054) can0 510#00000000FFFF0001
(1659690139.214529) can0 1E5#00FE7C0000000000
(1659690139.214543) can0 1A1#00000000000000
(1659690139.215445) can0 0F1#000000000000
(1659690139.221341) can0 130#55F1FCFFFF
(1659690139.225426) can0 1E5#00FE7C0000000000
(1659690139.225439) can0 1A1#00000000000000
(1659690139.226200) can0 0F1#000000000000
(1659690139.235509) can0 12F#8C508ADDF4053006
(1659690139.235528) can0 1E5#00FE7C0000000000
(1659690139.235530) can0 1A1#00000000000000
(1659690139.235531) can0 0F1#000000000000
(1659690139.246468) can0 1E5#00FE7C0000000000
(1659690139.246484) can0 1A1#00000000000000
(1659690139.247431) can0 0F1#000000000000
(1659690139.249350) can0 1A1#DFC7000091
(1659690139.256315) can0 1E5#00FE7C0000000000
(1659690139.256332) can0 1A1#00000000000000
(1659690139.257411) can0 0F1#000000000000
(1659690139.263404) can0 510#00000000FFFF0001
(1659690139.267307) can0 1E5#00FE7C0000000000
(1659690139.267329) can0 1A1#00000000000000
(1659690139.268156) can0 0F1#000000000000
(1659690139.276133) can0 130#55F1FCFFFF
(1659690139.277333) can0 1E5#00FE7C0000000000
(1659690139.278466) can0 1A1#00000000000000
(1659690139.279361) can0 0F1#000000000000
(1659690139.288171) can0 1E5#00FE7C0000000000
(1659690139.288209) can0 1A1#00000000000000
(1659690139.289104) can0 0F1#000000000000
(1659690139.289135) can0 12F#8C508ADDF4053006
(1659690139.298492) can0 1E5#00FE7C0000000000
(1659690139.298529) can0 1A1#00000000000000
(1659690139.300205) can0 0F1#000000000000
(1659690139.304193) can0 1A1#DFC7000091
(1659690139.309513) can0 1E5#00FE7C0000000000
(1659690139.309550) can0 1A1#00000000000000
(1659690139.310126) can0 0F1#000000000000
(1659690139.318059) can0 510#00000000FFFF0001
(1659690139.319066) can0 1E5#00FE7C0000000000
(1659690139.320057) can0 1A1#00000000000000
(1659690139.321063) can0 0F1#000000000000
(1659690139.330072) can0 1E5#00FE7C0000000000
(1659690139.330096) can0 1A1#00000000000000
(1659690139.331076) can0 0F1#000000000000
(1659690139.331101) can0 130#55F1FCFFFF
(1659690139.340055) can0 1E5#00FE7C0000000000
(1659690139.341069) can0 1A1#00000000000000
(1659690139.342046) can0 0F1#000000000000
(1659690139.345001) can0 12F#8C508ADDF4053006
(1659690139.350978) can0 1E5#00FE7C0000000000
(1659690139.350991) can0 1A1#00000000000000
(1659690139.351955) can0 0F1#000000000000
(1659690139.358935) can0 1A1#DFC7000091
(1659690139.360933) can0 1E5#00FE7C0000000000
(1659690139.361940) can0 1A1#00000000000000
(1659690139.362916) can0 0F1#000000000000
(1659690139.371934) can0 1E5#00FE7C0000000000
(1659690139.371952) can0 1A1#00000000000000
(1659690139.371954) can0 0F1#000000000000
(1659690139.371956) can0 510#00000000FFFF0001
(1659690139.382378) can0 1E5#00FE7C0000000000
(1659690139.382392) can0 1A1#00000000000000
(1659690139.383301) can0 0F1#000000000000
(1659690139.387267) can0 130#55F1FCFFFF
(1659690139.393394) can0 1E5#00FE7C0000000000
(1659690139.393412) can0 1A1#00000000000000
(1659690139.394339) can0 0F1#000000000000
(1659690139.401366) can0 12F#8C508ADDF4053006
(1659690139.403381) can0 1E5#00FE7C0000000000
(1659690139.403396) can0 1A1#00000000000000
(1659690139.404105) can0 0F1#000000000000
(1659690139.413999) can0 1E5#00FE7C0000000000
(1659690139.414025) can0 1A1#DFC7000091
(1659690139.414029) can0 1A1#00000000000000
(1659690139.414032) can0 0F1#000000000000
(1659690139.424333) can0 1E5#00FE7C0000000000
(1659690139.424367) can0 1A1#00000000000000
(1659690139.425309) can0 0F1#000000000000
(1659690139.428055) can0 510#00000000FFFF0001
(1659690139.435372) can0 1E5#00FE7C0000000000
(1659690139.435415) can0 1A1#00000000000000
(1659690139.436103) can0 0F1#000000000000
(1659690139.442338) can0 130#55F1FCFFFF
(1659690139.445200) can0 1E5#00FE7C0000000000
(1659690139.445236) can0 1A1#00000000000000
(1659690139.446003) can0 0F1#000000000000
(1659690139.455002) can0 12F#8C508ADDF4053006
(1659690139.456038) can0 1E5#00FE7C0000000000
(1659690139.456075) can0 1A1#00000000000000
(1659690139.456083) can0 0F1#000000000000
(1659690139.466013) can0 1E5#00FE7C0000000000
(1659690139.466047) can0 1A1#00000000000000
(1659690139.466966) can0 0F1#000000000000
(1659690139.469963) can0 1A1#DFC7000091
(1659690139.475974) can0 1E5#00FE7C0000000000
(1659690139.476976) can0 1A1#00000000000000
(1659690139.477953) can0 0F1#000000000000
(1659690139.484015) can0 510#00000000FFFF0001
(1659690139.486984) can0 1E5#00FE7C0000000000
(1659690139.487012) can0 1A1#00000000000000
(1659690139.487954) can0 0F1#000000000000
(1659690139.496889) can0 130#55F1FCFFFF
(1659690139.496909) can0 1E5#00FE7C0000000000
(1659690139.497917) can0 1A1#00000000000000
(1659690139.497933) can0 0F1#000000000000
(1659690139.507857) can0 1E5#00FE7C0000000000
(1659690139.507867) can0 1A1#00000000000000
(1659690139.508817) can0 0F1#000000000000
(1659690139.510818) can0 12F#8C508ADDF4053006
(1659690139.517809) can0 1E5#00FE7C0000000000
(1659690139.517817) can0 1A1#00000000000000
(1659690139.520017) can0 0F1#000000000000
(1659690139.525030) can0 1A1#DFC7000091
(1659690139.529043) can0 1E5#00FE7C0000000000
(1659690139.529049) can0 1A1#00000000000000
(1659690139.530006) can0 0F1#000000000000
(1659690139.539082) can0 510#00000000FFFF0001
(1659690139.539099) can0 1E5#00FE7C0000000000
(1659690139.539101) can0 1A1#00000000000000
(1659690139.539102) can0 0F1#000000000000
(1659690139.549800) can0 1E5#00FE7C0000000000
(1659690139.549809) can0 1A1#00000000000000
(1659690139.551045) can0 0F1#000000000000
(1659690139.552993) can0 130#55F1FCFFFF
(1659690139.559933) can0 1E5#00FE7C0000000000
(1659690139.560970) can0 1A1#00000000000000
(1659690139.561778) can0 0F1#000000000000
(1659690139.566878) can0 12F#8C508ADDF4053006
(1659690139.571182) can0 1E5#00FE7C0000000000
(1659690139.571207) can0 1A1#00000000000000
(1659690139.571796) can0 0F1#000000000000
(1659690139.579838) can0 1A1#DFC7000091
(1659690139.581905) can0 1E5#00FE7C0000000000
(1659690139.581932) can0 1A1#00000000000000
(1659690139.582893) can0 0F1#000000000000
(1659690139.591911) can0 1E5#00FE7C0000000000
(1659690139.591957) can0 1A1#00000000000000
(1659690139.592876) can0 0F1#000000000000
(1659690139.592906) can0 510#00000000FFFF0001
(1659690139.602893) can0 1E5#00FE7C0000000000
(1659690139.602935) can0 1A1#00000000000000
(1659690139.603888) can0 0F1#000000000000
(1659690139.607894) can0 130#55F1FCFFFF
(1659690139.613016) can0 1E5#00FE7C0000000000
(1659690139.613058) can0 1A1#00000000000000
(1659690139.614033) can0 0F1#000000000000
(1659690139.621828) can0 12F#8C508ADDF4053006
(1659690139.623800) can0 1E5#00FE7C0000000000
(1659690139.623834) can0 1A1#00000000000000
(1659690139.624956) can0 0F1#000000000000
(1659690139.634072) can0 1E5#00FE7C0000000000
(1659690139.634833) can0 1A1#00000000000000
(1659690139.634874) can0 0F1#000000000000
(1659690139.634884) can0 1A1#DFC7000091
(1659690139.644940) can0 1E5#00FE7C0000000000
(1659690139.644978) can0 1A1#00000000000000
(1659690139.645792) can0 0F1#000000000000
(1659690139.649917) can0 510#00000000FFFF0001
(1659690139.654808) can0 1E5#00FE7C0000000000
(1659690139.654847) can0 1A1#00000000000000
(1659690139.655882) can0 0F1#000000000000
(1659690139.662889) can0 130#55F1FCFFFF
(1659690139.665920) can0 1E5#00FE7C0000000000
(1659690139.665955) can0 1A1#00000000000000
(1659690139.666844) can0 0F1#000000000000
(1659690139.675812) can0 1E5#00FE7C0000000000
(1659690139.675846) can0 12F#8C508ADDF4053006
(1659690139.676780) can0 1A1#00000000000000
(1659690139.676804) can0 0F1#000000000000
(1659690139.686873) can0 1E5#00FE7C0000000000
(1659690139.686906) can0 1A1#00000000000000
(1659690139.688001) can0 0F1#000000000000
(1659690139.690788) can0 1A1#DFC7000091
(1659690139.696834) can0 1E5#00FE7C0000000000
(1659690139.696869) can0 1A1#00000000000000
(1659690139.697845) can0 0F1#000000000000
(1659690139.704714) can0 510#00000000FFFF0001
(1659690139.707781) can0 1E5#00FE7C0000000000
(1659690139.707822) can0 1A1#00000000000000
(1659690139.708804) can0 0F1#000000000000
(1659690139.717860) can0 130#55F1FCFFFF
(1659690139.717891) can0 1E5#00FE7C0000000000
(1659690139.717898) can0 1A1#00000000000000
(1659690139.717904) can0 0F1#000000000000
(1659690139.727708) can0 1E5#00FE7C0000000000
(1659690139.728777) can0 1A1#00000000000000
(1659690139.729924) can0 0F1#000000000000
(1659690139.731742) can0 12F#8C508ADDF4053006
(1659690139.738769) can0 1E5#00FE7C0000000000
(1659690139.738815) can0 1A1#00000000000000
(1659690139.739708) can0 0F1#000000000000
(1659690139.745746) can0 1A1#DFC7000091
(1659690139.748763) can0 1E5#00FE7C0000000000
(1659690139.749749) can0 1A1#00000000000000
(1659690139.750698) can0 0F1#000000000000
(1659690139.759704) can0 510#00000000FFFF0001
(1659690139.759748) can0 1E5#00FE7C0000000000
(1659690139.759762) can0 1A1#00000000000000
(1659690139.759769) can0 0F1#000000000000
(1659690139.769934) can0 1E5#00FE7C0000000000
(1659690139.770764) can0 1A1#00000000000000
(1659690139.771686) can0 0F1#000000000000
(1659690139.773776) can0 130#55F1FCFFFF
(1659690139.781035) can0 1E5#00FE7C0000000000
(1659690139.781072) can0 1A1#00000000000000
(1659690139.781943) can0 0F1#000000000000
(1659690139.787797) can0 12F#8C508ADDF4053006
(1659690139.791685) can0 1E5#00FE7C0000000000
(1659690139.791740) can0 1A1#00000000000000
(1659690139.792724) can0 0F1#000000000000
(1659690139.801642) can0 1A1#DFC7000091
(1659690139.801692) can0 1E5#00FE7C0000000000
(1659690139.801699) can0 1A1#00000000000000
(1659690139.801705) can0 0F1#000000000000
(1659690139.812854) can0 1E5#00FE7C0000000000
(1659690139.812904) can0 1A1#00000000000000
(1659690139.813613) can0 0F1#000000000000
(1659690139.813644) can0 510#00000000FFFF0001
(1659690139.822763) can0 1E5#00FE7C0000000000
(1659690139.822806) can0 1A1#00000000000000
(1659690139.823597) can0 0F1#000000000000
(1659690139.828767) can0 130#55F1FCFFFF
(1659690139.833788) can0 1E5#00FE7C0000000000
(1659690139.833815) can0 1A1#00000000000000
(1659690139.834693) can0 0F1#000000000000
(1659690139.842591) can0 12F#8C508ADDF4053006
(1659690139.843638) can0 1E5#00FE7C0000000000
(1659690139.843663) can0 1A1#00000000000000
(1659690139.845545) can0 0F1#000000000000
(1659690139.854590) can0 1E5#00FE7C0000000000
(1659690139.854622) can0 1A1#00000000000000
(1659690139.855576) can0 0F1#000000000000
(1659690139.855607) can0 1A1#DFC7000091
(1659690139.864569) can0 1E5#00FE7C0000000000
(1659690139.865500) can0 1A1#00000000000000
(1659690139.866452) can0 0F1#000000000000
(1659690139.870576) can0 510#00000000FFFF0001
(1659690139.875644) can0 1E5#00FE7C0000000000
(1659690139.875668) can0 1A1#00000000000000
(1659690139.876681) can0 0F1#000000000000
(1659690139.883499) can0 130#55F1FCFFFF
(1659690139.885511) can0 1E5#00FE7C0000000000
